
T4120 000:648 SEGGER J-Link V4.86b Log File (0002ms, 0265ms total)
T4120 000:648 DLL Compiled: Jun 27 2014 20:11:00 (0002ms, 0265ms total)
T4120 000:648 Logging started @ 2018-10-23 16:46 (0002ms, 0265ms total)
T4120 000:650 JLINK_SetWarnOutHandler(...) (0000ms, 0265ms total)
T4120 000:650 JLINK_OpenEx(...)
Firmware: J-Link ARM-OB STM32 compiled Aug 22 2012 19:52:04
Hardware: V7.00
S/N: 20090928
Feature(s): RDI,FlashDL,FlashBP,JFlash,GDB  returns O.K. (0262ms, 0527ms total)
T4120 000:912 JLINK_SetErrorOutHandler(...) (0000ms, 0527ms total)
T4120 000:912 JLINK_ExecCommand("ProjectFile = "C:\Users\Administrator\Desktop\carry_robot1111111\MDK-ARM\JLinkSettings.ini"", ...)Device "STM32F407ZG" selected (1024 KB flash, 128 KB RAM).  returns 0x00 (0023ms, 0550ms total)
T4120 000:944 JLINK_ExecCommand("Device = STM32F407ZGTx", ...)Device "STM32F407ZG" selected (1024 KB flash, 128 KB RAM).  returns 0x00 (0009ms, 0559ms total)
T4120 000:953 JLINK_ExecCommand("DisableConnectionTimeout", ...)  returns 0x01 (0000ms, 0559ms total)
T4120 000:953 JLINK_GetHardwareVersion()  returns 0x11170 (0000ms, 0559ms total)
T4120 000:953 JLINK_GetDLLVersion()  returns 48602 (0000ms, 0559ms total)
T4120 000:953 JLINK_GetFirmwareString(...) (0000ms, 0559ms total)
T4120 000:996 JLINK_GetDLLVersion()  returns 48602 (0000ms, 0559ms total)
T4120 000:996 JLINK_GetCompileDateTime() (0000ms, 0559ms total)
T4120 001:000 JLINK_GetFirmwareString(...) (0000ms, 0559ms total)
T4120 001:004 JLINK_GetHardwareVersion()  returns 0x11170 (0000ms, 0559ms total)
T4120 001:024 JLINK_TIF_Select(JLINKARM_TIF_SWD)  returns 0x00 (0000ms, 0559ms total)
T4120 001:024 JLINK_SetSpeed(5000) (0000ms, 0559ms total)
T4120 001:025 JLINK_GetId() >0x108 TIF>Found SWD-DP with ID 0x2BA01477 >0x0D TIF> >0x28 TIF> >0x0D TIF> >0x28 TIF> >0x0D TIF> >0x21 TIF> >0x0D TIF> >0x28 TIF> >0x0D TIF> >0x28 TIF> >0x0D TIF> >0x28 TIF> >0x0D TIF> >0x21 TIF> >0x0D TIF> >0x21 TIF> >0x0D TIF> >0x28 TIF> >0x0D TIF> >0x21 TIF> >0x0D TIF> >0x21 TIF> >0x0D TIF> >0x28 TIF> >0x0D TIF> >0x21 TIF> >0x0D TIF> >0x21 TIF> >0x108 TIF>Found SWD-DP with ID 0x2BA01477 >0x0D TIF> >0x21 TIF> >0x0D TIF> >0x28 TIF> >0x0D TIF> >0x28 TIF> >0x0D TIF> >0x21 TIF>
 >0x0D TIF> >0x28 TIF> >0x0D TIF> >0x21 TIF> >0x0D TIF> >0x21 TIF> >0x0D TIF> >0x21 TIF> >0x0D TIF> >0x21 TIF> >0x0D TIF> >0x28 TIF> >0x0D TIF> >0x28 TIF> >0x0D TIF> >0x21 TIF> >0x0D TIF> >0x28 TIF> >0x0D TIF> >0x28 TIF> >0x0D TIF> >0x28 TIF> >0x0D TIF> >0x21 TIF> >0x0D TIF> >0x21 TIF> >0x0D TIF> >0x28 TIF> >0x0D TIF> >0x21 TIF> >0x0D TIF> >0x21 TIF>Found Cortex-M4 r0p1, Little endian. -- CPU_WriteMem(4 bytes @ 0xE0002000) -- CPU_ReadMem(4 bytes @ 0xE000EDF0) -- CPU_ReadMem(4 bytes @ 0xE0002000)
FPUnit: 6 code (BP) slots and 2 literal slots -- CPU_ReadMem(4 bytes @ 0xE000EDFC) -- CPU_ReadMem(4 bytes @ 0xE0001000) -- CPU_WriteMem(4 bytes @ 0xE0001000) -- CPU_ReadMem(4 bytes @ 0xE00FF010)TPIU fitted. -- CPU_ReadMem(4 bytes @ 0xE00FF014)ETM fitted. -- CPU_ReadMem(4 bytes @ 0xE00FF018) >0x0D TIF> >0x21 TIF>  returns 0x2BA01477 (0060ms, 0620ms total)
T4120 001:085 JLINK_GetDLLVersion()  returns 48602 (0000ms, 0620ms total)
T4120 001:085 JLINK_CORE_GetFound()  returns 0xE0000FF (0001ms, 0621ms total)
T4120 001:090 JLINK_ReadMem (0xE00FF000, 0x0020 Bytes, ...) -- CPU is running -- CPU_ReadMem(32 bytes @ 0xE00FF000) - Data: 03 F0 F0 FF 03 20 F0 FF 03 30 F0 FF 03 10 F0 FF ...  returns 0x00 (0001ms, 0622ms total)
T4120 001:091 JLINK_ReadMem (0xE000EFF0, 0x0010 Bytes, ...) -- CPU is running -- CPU_ReadMem(16 bytes @ 0xE000EFF0) - Data: 0D 00 00 00 E0 00 00 00 05 00 00 00 B1 00 00 00  returns 0x00 (0001ms, 0623ms total)
T4120 001:092 JLINK_ReadMem (0xE000EFD0, 0x0020 Bytes, ...) -- CPU is running -- CPU_ReadMem(32 bytes @ 0xE000EFD0) - Data: 04 00 00 00 00 00 00 00 00 00 00 00 00 00 00 00 ...  returns 0x00 (0000ms, 0623ms total)
T4120 001:092 JLINK_ReadMem (0xE0001FF0, 0x0010 Bytes, ...) -- CPU is running -- CPU_ReadMem(16 bytes @ 0xE0001FF0) - Data: 0D 00 00 00 E0 00 00 00 05 00 00 00 B1 00 00 00  returns 0x00 (0001ms, 0624ms total)
T4120 001:093 JLINK_ReadMem (0xE0001FD0, 0x0020 Bytes, ...) -- CPU is running -- CPU_ReadMem(32 bytes @ 0xE0001FD0) - Data: 04 00 00 00 00 00 00 00 00 00 00 00 00 00 00 00 ...  returns 0x00 (0001ms, 0625ms total)
T4120 001:094 JLINK_ReadMem (0xE0002FF0, 0x0010 Bytes, ...) -- CPU is running -- CPU_ReadMem(16 bytes @ 0xE0002FF0) - Data: 0D 00 00 00 E0 00 00 00 05 00 00 00 B1 00 00 00  returns 0x00 (0001ms, 0626ms total)
T4120 001:095 JLINK_ReadMem (0xE0002FD0, 0x0020 Bytes, ...) -- CPU is running -- CPU_ReadMem(32 bytes @ 0xE0002FD0) - Data: 04 00 00 00 00 00 00 00 00 00 00 00 00 00 00 00 ...  returns 0x00 (0001ms, 0627ms total)
T4120 001:096 JLINK_ReadMem (0xE0000FF0, 0x0010 Bytes, ...) -- CPU is running -- CPU_ReadMem(16 bytes @ 0xE0000FF0) - Data: 0D 00 00 00 E0 00 00 00 05 00 00 00 B1 00 00 00  returns 0x00 (0000ms, 0627ms total)
T4120 001:096 JLINK_ReadMem (0xE0000FD0, 0x0020 Bytes, ...) -- CPU is running -- CPU_ReadMem(32 bytes @ 0xE0000FD0) - Data: 04 00 00 00 00 00 00 00 00 00 00 00 00 00 00 00 ...  returns 0x00 (0001ms, 0628ms total)
T4120 001:097 JLINK_ReadMem (0xE0040FF0, 0x0010 Bytes, ...) -- CPU is running -- CPU_ReadMem(16 bytes @ 0xE0040FF0) - Data: 0D 00 00 00 90 00 00 00 05 00 00 00 B1 00 00 00  returns 0x00 (0001ms, 0629ms total)
T4120 001:098 JLINK_ReadMem (0xE0040FD0, 0x0020 Bytes, ...) -- CPU is running -- CPU_ReadMem(32 bytes @ 0xE0040FD0) - Data: 04 00 00 00 00 00 00 00 00 00 00 00 00 00 00 00 ...  returns 0x00 (0001ms, 0630ms total)
T4120 001:099 JLINK_ReadMem (0xE0041FF0, 0x0010 Bytes, ...) -- CPU is running -- CPU_ReadMem(16 bytes @ 0xE0041FF0) - Data: 0D 00 00 00 90 00 00 00 05 00 00 00 B1 00 00 00  returns 0x00 (0000ms, 0630ms total)
T4120 001:099 JLINK_ReadMem (0xE0041FD0, 0x0020 Bytes, ...) -- CPU is running -- CPU_ReadMem(32 bytes @ 0xE0041FD0) - Data: 04 00 00 00 00 00 00 00 00 00 00 00 00 00 00 00 ...  returns 0x00 (0001ms, 0631ms total)
T4120 001:100 JLINK_ReadMemU32(0xE000EF40, 0x0001 Items, ...) -- CPU is running -- CPU_ReadMem(4 bytes @ 0xE000EF40) - Data: 21 00 11 10  returns 0x01 (0001ms, 0632ms total)
T4120 001:101 JLINK_ReadMemU32(0xE000EF44, 0x0001 Items, ...) -- CPU is running -- CPU_ReadMem(4 bytes @ 0xE000EF44) - Data: 11 00 00 11  returns 0x01 (0001ms, 0633ms total)
T4120 001:102 JLINK_ReadMemU32(0xE000ED00, 0x0001 Items, ...) -- CPU is running -- CPU_ReadMem(4 bytes @ 0xE000ED00) - Data: 41 C2 0F 41  returns 0x01 (0000ms, 0633ms total)
T4120 001:102 JLINK_SetResetType(JLINKARM_RESET_TYPE_NORMAL)  returns JLINKARM_RESET_TYPE_NORMAL (0000ms, 0633ms total)
T4120 001:102 JLINK_Reset() -- CPU is running -- CPU_WriteMem(4 bytes @ 0xE000EDF0) -- CPU is running -- CPU_WriteMem(4 bytes @ 0xE000EDFC) >0x35 TIF> -- CPU is running -- CPU_WriteMem(4 bytes @ 0xE000ED0C) -- CPU is running -- CPU_ReadMem(4 bytes @ 0xE000EDF0) -- CPU is running -- CPU_ReadMem(4 bytes @ 0xE000EDF0) -- CPU is running -- CPU_WriteMem(4 bytes @ 0xE000EDF0) -- CPU is running -- CPU_WriteMem(4 bytes @ 0xE000EDFC) -- CPU is running -- CPU_ReadMem(4 bytes @ 0xE000EDF0)
 -- CPU_WriteMem(4 bytes @ 0xE0002000) -- CPU_ReadMem(4 bytes @ 0xE000EDFC) -- CPU_ReadMem(4 bytes @ 0xE0001000) (0020ms, 0653ms total)
T4120 001:122 JLINK_Halt()  returns 0x00 (0000ms, 0653ms total)
T4120 001:122 JLINK_IsHalted()  returns TRUE (0000ms, 0653ms total)
T4120 001:122 JLINK_ReadMemU32(0xE000EDF0, 0x0001 Items, ...) -- CPU_ReadMem(4 bytes @ 0xE000EDF0) - Data: 03 00 03 00  returns 0x01 (0000ms, 0653ms total)
T4120 001:122 JLINK_WriteU32(0xE000EDF0, 0xA05F0003) -- CPU_WriteMem(4 bytes @ 0xE000EDF0)  returns 0x00 (0001ms, 0654ms total)
T4120 001:123 JLINK_WriteU32(0xE000EDFC, 0x01000000) -- CPU_WriteMem(4 bytes @ 0xE000EDFC)  returns 0x00 (0001ms, 0655ms total)
T4120 001:142 JLINK_GetHWStatus(...)  returns 0x00 (0000ms, 0655ms total)
T4120 001:159 JLINK_GetNumBPUnits(Type = 0xFFFFFF00)  returns 0x06 (0000ms, 0655ms total)
T4120 001:159 JLINK_GetNumBPUnits(Type = 0xF0)  returns 0x2000 (0000ms, 0655ms total)
T4120 001:159 JLINK_GetNumWPUnits()  returns 0x04 (0001ms, 0656ms total)
T4120 001:176 JLINK_GetSpeed()  returns 0xFA0 (0000ms, 0656ms total)
T4120 001:191 JLINK_ReadMemU32(0xE000E004, 0x0001 Items, ...) -- CPU_ReadMem(4 bytes @ 0xE000E004) - Data: 02 00 00 00  returns 0x01 (0000ms, 0656ms total)
T4120 001:192 JLINK_ReadMemU32(0xE000E004, 0x0001 Items, ...) -- CPU_ReadMem(4 bytes @ 0xE000E004) - Data: 02 00 00 00  returns 0x01 (0000ms, 0656ms total)
T4120 001:192 JLINK_WriteMem(0xE0001000, 0x001C Bytes, ...) - Data: 01 00 00 00 00 00 00 00 00 00 00 00 00 00 00 00 ... -- CPU_WriteMem(28 bytes @ 0xE0001000)  returns 0x1C (0001ms, 0657ms total)
T4120 001:193 JLINK_ReadMem (0xE0001000, 0x001C Bytes, ...) -- CPU_ReadMem(28 bytes @ 0xE0001000) - Data: 01 00 00 40 00 00 00 00 00 00 00 00 00 00 00 00 ...  returns 0x00 (0001ms, 0658ms total)
T4120 001:194 JLINK_Halt()  returns 0x00 (0000ms, 0658ms total)
T4120 001:194 JLINK_IsHalted()  returns TRUE (0000ms, 0658ms total)
T4120 001:198 JLINK_WriteMem(0x20000000, 0x0180 Bytes, ...) - Data: 00 BE 0A E0 0D 78 2D 06 68 40 08 24 40 00 00 D3 ... -- CPU_WriteMem(384 bytes @ 0x20000000)  returns 0x180 (0005ms, 0663ms total)
T4120 001:203 JLINK_WriteReg(R0, 0x08000000)  returns 0x00 (0001ms, 0664ms total)
T4120 001:204 JLINK_WriteReg(R1, 0x0A037A00)  returns 0x00 (0000ms, 0664ms total)
T4120 001:204 JLINK_WriteReg(R2, 0x00000001)  returns 0x00 (0000ms, 0664ms total)
T4120 001:204 JLINK_WriteReg(R3, 0x00000000)  returns 0x00 (0000ms, 0664ms total)
T4120 001:204 JLINK_WriteReg(R4, 0x00000000)  returns 0x00 (0000ms, 0664ms total)
T4120 001:204 JLINK_WriteReg(R5, 0x00000000)  returns 0x00 (0000ms, 0664ms total)
T4120 001:204 JLINK_WriteReg(R6, 0x00000000)  returns 0x00 (0000ms, 0664ms total)
T4120 001:204 JLINK_WriteReg(R7, 0x00000000)  returns 0x00 (0000ms, 0664ms total)
T4120 001:204 JLINK_WriteReg(R8, 0x00000000)  returns 0x00 (0000ms, 0664ms total)
T4120 001:204 JLINK_WriteReg(R9, 0x2000017C)  returns 0x00 (0000ms, 0664ms total)
T4120 001:204 JLINK_WriteReg(R10, 0x00000000)  returns 0x00 (0000ms, 0664ms total)
T4120 001:204 JLINK_WriteReg(R11, 0x00000000)  returns 0x00 (0000ms, 0664ms total)
T4120 001:204 JLINK_WriteReg(R12, 0x00000000)  returns 0x00 (0000ms, 0664ms total)
T4120 001:204 JLINK_WriteReg(R13 (SP), 0x20001000)  returns 0x00 (0000ms, 0664ms total)
T4120 001:204 JLINK_WriteReg(R14, 0x20000001)  returns 0x00 (0000ms, 0664ms total)
T4120 001:204 JLINK_WriteReg(R15 (PC), 0x20000054)  returns 0x00 (0000ms, 0664ms total)
T4120 001:204 JLINK_WriteReg(XPSR, 0x01000000)  returns 0x00 (0000ms, 0664ms total)
T4120 001:204 JLINK_WriteReg(MSP, 0x20001000)  returns 0x00 (0000ms, 0664ms total)
T4120 001:204 JLINK_WriteReg(PSP, 0x20001000)  returns 0x00 (0000ms, 0664ms total)
T4120 001:204 JLINK_WriteReg(CFBP, 0x00000000)  returns 0x00 (0000ms, 0664ms total)
T4120 001:204 JLINK_SetBPEx(Addr = 0x20000000, Type = 0xFFFFFFF2) -- CPU_ReadMem(2 bytes @ 0x20000000)  returns 0x00000001 (0001ms, 0665ms total)
T4120 001:205 JLINK_Go() -- CPU_WriteMem(2 bytes @ 0x20000000) -- CPU_WriteMem(4 bytes @ 0xE0002008) -- CPU_WriteMem(4 bytes @ 0xE000200C) -- CPU_WriteMem(4 bytes @ 0xE0002010) -- CPU_WriteMem(4 bytes @ 0xE0002014) -- CPU_WriteMem(4 bytes @ 0xE0002018) -- CPU_WriteMem(4 bytes @ 0xE000201C) -- CPU_WriteMem(4 bytes @ 0xE0001004) (0006ms, 0671ms total)
T4120 001:211 JLINK_IsHalted() -- CPU_ReadMem(2 bytes @ 0x20000000)  returns TRUE (0005ms, 0676ms total)
T4120 001:216 JLINK_ReadReg(R15 (PC))  returns 0x20000000 (0000ms, 0671ms total)
T4120 001:216 JLINK_ClrBPEx(BPHandle = 0x00000001)  returns 0x00 (0000ms, 0671ms total)
T4120 001:216 JLINK_ReadReg(R0)  returns 0x00000000 (0000ms, 0671ms total)
T4120 001:216 JLINK_WriteReg(R0, 0x08000000)  returns 0x00 (0000ms, 0671ms total)
T4120 001:216 JLINK_WriteReg(R1, 0x00004000)  returns 0x00 (0000ms, 0671ms total)
T4120 001:216 JLINK_WriteReg(R2, 0x000000FF)  returns 0x00 (0000ms, 0671ms total)
T4120 001:216 JLINK_WriteReg(R3, 0x00000000)  returns 0x00 (0000ms, 0671ms total)
T4120 001:216 JLINK_WriteReg(R4, 0x00000000)  returns 0x00 (0000ms, 0671ms total)
T4120 001:216 JLINK_WriteReg(R5, 0x00000000)  returns 0x00 (0000ms, 0671ms total)
T4120 001:216 JLINK_WriteReg(R6, 0x00000000)  returns 0x00 (0000ms, 0671ms total)
T4120 001:216 JLINK_WriteReg(R7, 0x00000000)  returns 0x00 (0000ms, 0671ms total)
T4120 001:216 JLINK_WriteReg(R8, 0x00000000)  returns 0x00 (0000ms, 0671ms total)
T4120 001:216 JLINK_WriteReg(R9, 0x2000017C)  returns 0x00 (0000ms, 0671ms total)
T4120 001:216 JLINK_WriteReg(R10, 0x00000000)  returns 0x00 (0000ms, 0671ms total)
T4120 001:216 JLINK_WriteReg(R11, 0x00000000)  returns 0x00 (0000ms, 0671ms total)
T4120 001:216 JLINK_WriteReg(R12, 0x00000000)  returns 0x00 (0000ms, 0671ms total)
T4120 001:216 JLINK_WriteReg(R13 (SP), 0x20001000)  returns 0x00 (0000ms, 0671ms total)
T4120 001:216 JLINK_WriteReg(R14, 0x20000001)  returns 0x00 (0001ms, 0672ms total)
T4120 001:217 JLINK_WriteReg(R15 (PC), 0x20000020)  returns 0x00 (0000ms, 0672ms total)
T4120 001:217 JLINK_WriteReg(XPSR, 0x01000000)  returns 0x00 (0000ms, 0672ms total)
T4120 001:217 JLINK_WriteReg(MSP, 0x20001000)  returns 0x00 (0000ms, 0672ms total)
T4120 001:217 JLINK_WriteReg(PSP, 0x20001000)  returns 0x00 (0000ms, 0672ms total)
T4120 001:217 JLINK_WriteReg(CFBP, 0x00000000)  returns 0x00 (0000ms, 0672ms total)
T4120 001:217 JLINK_SetBPEx(Addr = 0x20000000, Type = 0xFFFFFFF2)  returns 0x00000002 (0000ms, 0672ms total)
T4120 001:217 JLINK_Go() (0001ms, 0673ms total)
T4120 001:219 JLINK_IsHalted() -- CPU_ReadMem(2 bytes @ 0x20000000)  returns TRUE (0004ms, 0677ms total)
T4120 001:223 JLINK_ReadReg(R15 (PC))  returns 0x20000000 (0000ms, 0673ms total)
T4120 001:223 JLINK_ClrBPEx(BPHandle = 0x00000002)  returns 0x00 (0000ms, 0673ms total)
T4120 001:223 JLINK_ReadReg(R0)  returns 0x00000001 (0000ms, 0673ms total)
T4120 001:223 JLINK_WriteReg(R0, 0x08000000)  returns 0x00 (0000ms, 0673ms total)
T4120 001:223 JLINK_WriteReg(R1, 0x00004000)  returns 0x00 (0000ms, 0673ms total)
T4120 001:223 JLINK_WriteReg(R2, 0x000000FF)  returns 0x00 (0000ms, 0673ms total)
T4120 001:223 JLINK_WriteReg(R3, 0x00000000)  returns 0x00 (0000ms, 0673ms total)
T4120 001:223 JLINK_WriteReg(R4, 0x00000000)  returns 0x00 (0000ms, 0673ms total)
T4120 001:223 JLINK_WriteReg(R5, 0x00000000)  returns 0x00 (0000ms, 0673ms total)
T4120 001:223 JLINK_WriteReg(R6, 0x00000000)  returns 0x00 (0000ms, 0673ms total)
T4120 001:223 JLINK_WriteReg(R7, 0x00000000)  returns 0x00 (0000ms, 0673ms total)
T4120 001:223 JLINK_WriteReg(R8, 0x00000000)  returns 0x00 (0000ms, 0673ms total)
T4120 001:223 JLINK_WriteReg(R9, 0x2000017C)  returns 0x00 (0000ms, 0673ms total)
T4120 001:223 JLINK_WriteReg(R10, 0x00000000)  returns 0x00 (0000ms, 0673ms total)
T4120 001:223 JLINK_WriteReg(R11, 0x00000000)  returns 0x00 (0000ms, 0673ms total)
T4120 001:223 JLINK_WriteReg(R12, 0x00000000)  returns 0x00 (0000ms, 0673ms total)
T4120 001:223 JLINK_WriteReg(R13 (SP), 0x20001000)  returns 0x00 (0000ms, 0673ms total)
T4120 001:223 JLINK_WriteReg(R14, 0x20000001)  returns 0x00 (0000ms, 0673ms total)
T4120 001:223 JLINK_WriteReg(R15 (PC), 0x200000BC)  returns 0x00 (0000ms, 0673ms total)
T4120 001:223 JLINK_WriteReg(XPSR, 0x01000000)  returns 0x00 (0000ms, 0673ms total)
T4120 001:223 JLINK_WriteReg(MSP, 0x20001000)  returns 0x00 (0000ms, 0673ms total)
T4120 001:223 JLINK_WriteReg(PSP, 0x20001000)  returns 0x00 (0000ms, 0673ms total)
T4120 001:223 JLINK_WriteReg(CFBP, 0x00000000)  returns 0x00 (0000ms, 0673ms total)
T4120 001:223 JLINK_SetBPEx(Addr = 0x20000000, Type = 0xFFFFFFF2)  returns 0x00000003 (0000ms, 0673ms total)
T4120 001:224 JLINK_Go() (0001ms, 0674ms total)
T4120 001:225 JLINK_IsHalted()  returns FALSE (0001ms, 0675ms total)
T4120 001:356 JLINK_IsHalted()  returns FALSE (0000ms, 0674ms total)
T4120 001:428 JLINK_IsHalted()  returns FALSE (0000ms, 0674ms total)
T4120 001:430 JLINK_IsHalted()  returns FALSE (0001ms, 0675ms total)
T4120 001:432 JLINK_IsHalted()  returns FALSE (0001ms, 0675ms total)
T4120 001:434 JLINK_IsHalted()  returns FALSE (0001ms, 0675ms total)
T4120 001:436 JLINK_IsHalted()  returns FALSE (0001ms, 0675ms total)
T4120 001:438 JLINK_IsHalted()  returns FALSE (0001ms, 0675ms total)
T4120 001:440 JLINK_IsHalted()  returns FALSE (0001ms, 0675ms total)
T4120 001:442 JLINK_IsHalted()  returns FALSE (0001ms, 0675ms total)
T4120 001:446 JLINK_IsHalted()  returns FALSE (0001ms, 0675ms total)
T4120 001:449 JLINK_IsHalted()  returns FALSE (0001ms, 0675ms total)
T4120 001:452 JLINK_IsHalted()  returns FALSE (0000ms, 0674ms total)
T4120 001:454 JLINK_IsHalted()  returns FALSE (0000ms, 0674ms total)
T4120 001:456 JLINK_IsHalted()  returns FALSE (0000ms, 0674ms total)
T4120 001:458 JLINK_IsHalted()  returns FALSE (0000ms, 0674ms total)
T4120 001:541 JLINK_IsHalted()  returns FALSE (0001ms, 0675ms total)
T4120 001:543 JLINK_IsHalted()  returns FALSE (0001ms, 0675ms total)
T4120 001:546 JLINK_IsHalted()  returns FALSE (0000ms, 0674ms total)
T4120 001:548 JLINK_IsHalted()  returns FALSE (0000ms, 0674ms total)
T4120 001:550 JLINK_IsHalted()  returns FALSE (0000ms, 0674ms total)
T4120 001:553 JLINK_IsHalted()  returns FALSE (0000ms, 0674ms total)
T4120 001:554 JLINK_IsHalted()  returns FALSE (0001ms, 0675ms total)
T4120 001:556 JLINK_IsHalted()  returns FALSE (0001ms, 0675ms total)
T4120 001:558 JLINK_IsHalted()  returns FALSE (0001ms, 0675ms total)
T4120 001:560 JLINK_IsHalted()  returns FALSE (0001ms, 0675ms total)
T4120 001:563 JLINK_IsHalted()  returns FALSE (0000ms, 0674ms total)
T4120 001:566 JLINK_IsHalted()  returns FALSE (0000ms, 0674ms total)
T4120 001:567 JLINK_IsHalted()  returns FALSE (0001ms, 0675ms total)
T4120 001:644 JLINK_IsHalted() -- CPU_ReadMem(2 bytes @ 0x20000000)  returns TRUE (0004ms, 0678ms total)
T4120 001:648 JLINK_ReadReg(R15 (PC))  returns 0x20000000 (0000ms, 0674ms total)
T4120 001:648 JLINK_ClrBPEx(BPHandle = 0x00000003)  returns 0x00 (0000ms, 0674ms total)
T4120 001:648 JLINK_ReadReg(R0)  returns 0x00000000 (0000ms, 0674ms total)
T4120 001:649 JLINK_WriteReg(R0, 0x00000001)  returns 0x00 (0000ms, 0674ms total)
T4120 001:649 JLINK_WriteReg(R1, 0x00004000)  returns 0x00 (0000ms, 0674ms total)
T4120 001:649 JLINK_WriteReg(R2, 0x000000FF)  returns 0x00 (0000ms, 0674ms total)
T4120 001:649 JLINK_WriteReg(R3, 0x00000000)  returns 0x00 (0000ms, 0674ms total)
T4120 001:649 JLINK_WriteReg(R4, 0x00000000)  returns 0x00 (0000ms, 0674ms total)
T4120 001:649 JLINK_WriteReg(R5, 0x00000000)  returns 0x00 (0000ms, 0674ms total)
T4120 001:649 JLINK_WriteReg(R6, 0x00000000)  returns 0x00 (0000ms, 0674ms total)
T4120 001:649 JLINK_WriteReg(R7, 0x00000000)  returns 0x00 (0000ms, 0674ms total)
T4120 001:649 JLINK_WriteReg(R8, 0x00000000)  returns 0x00 (0000ms, 0674ms total)
T4120 001:649 JLINK_WriteReg(R9, 0x2000017C)  returns 0x00 (0000ms, 0674ms total)
T4120 001:649 JLINK_WriteReg(R10, 0x00000000)  returns 0x00 (0000ms, 0674ms total)
T4120 001:649 JLINK_WriteReg(R11, 0x00000000)  returns 0x00 (0000ms, 0674ms total)
T4120 001:649 JLINK_WriteReg(R12, 0x00000000)  returns 0x00 (0000ms, 0674ms total)
T4120 001:649 JLINK_WriteReg(R13 (SP), 0x20001000)  returns 0x00 (0000ms, 0674ms total)
T4120 001:649 JLINK_WriteReg(R14, 0x20000001)  returns 0x00 (0000ms, 0674ms total)
T4120 001:649 JLINK_WriteReg(R15 (PC), 0x20000082)  returns 0x00 (0000ms, 0674ms total)
T4120 001:649 JLINK_WriteReg(XPSR, 0x01000000)  returns 0x00 (0000ms, 0674ms total)
T4120 001:649 JLINK_WriteReg(MSP, 0x20001000)  returns 0x00 (0000ms, 0674ms total)
T4120 001:649 JLINK_WriteReg(PSP, 0x20001000)  returns 0x00 (0000ms, 0674ms total)
T4120 001:649 JLINK_WriteReg(CFBP, 0x00000000)  returns 0x00 (0000ms, 0674ms total)
T4120 001:649 JLINK_SetBPEx(Addr = 0x20000000, Type = 0xFFFFFFF2)  returns 0x00000004 (0000ms, 0674ms total)
T4120 001:649 JLINK_Go() (0002ms, 0676ms total)
T4120 001:651 JLINK_IsHalted() -- CPU_ReadMem(2 bytes @ 0x20000000)  returns TRUE (0005ms, 0681ms total)
T4120 001:656 JLINK_ReadReg(R15 (PC))  returns 0x20000000 (0000ms, 0676ms total)
T4120 001:656 JLINK_ClrBPEx(BPHandle = 0x00000004)  returns 0x00 (0000ms, 0676ms total)
T4120 001:656 JLINK_ReadReg(R0)  returns 0x00000000 (0000ms, 0676ms total)
T4120 001:718 JLINK_WriteMem(0x20000000, 0x0180 Bytes, ...) - Data: 00 BE 0A E0 0D 78 2D 06 68 40 08 24 40 00 00 D3 ... -- CPU_WriteMem(384 bytes @ 0x20000000)  returns 0x180 (0005ms, 0681ms total)
T4120 001:723 JLINK_WriteReg(R0, 0x08000000)  returns 0x00 (0000ms, 0681ms total)
T4120 001:723 JLINK_WriteReg(R1, 0x0A037A00)  returns 0x00 (0000ms, 0681ms total)
T4120 001:724 JLINK_WriteReg(R2, 0x00000002)  returns 0x00 (0000ms, 0681ms total)
T4120 001:724 JLINK_WriteReg(R3, 0x00000000)  returns 0x00 (0000ms, 0681ms total)
T4120 001:724 JLINK_WriteReg(R4, 0x00000000)  returns 0x00 (0000ms, 0681ms total)
T4120 001:724 JLINK_WriteReg(R5, 0x00000000)  returns 0x00 (0000ms, 0681ms total)
T4120 001:724 JLINK_WriteReg(R6, 0x00000000)  returns 0x00 (0000ms, 0681ms total)
T4120 001:724 JLINK_WriteReg(R7, 0x00000000)  returns 0x00 (0000ms, 0681ms total)
T4120 001:724 JLINK_WriteReg(R8, 0x00000000)  returns 0x00 (0000ms, 0681ms total)
T4120 001:724 JLINK_WriteReg(R9, 0x2000017C)  returns 0x00 (0000ms, 0681ms total)
T4120 001:724 JLINK_WriteReg(R10, 0x00000000)  returns 0x00 (0000ms, 0681ms total)
T4120 001:724 JLINK_WriteReg(R11, 0x00000000)  returns 0x00 (0000ms, 0681ms total)
T4120 001:724 JLINK_WriteReg(R12, 0x00000000)  returns 0x00 (0000ms, 0681ms total)
T4120 001:724 JLINK_WriteReg(R13 (SP), 0x20001000)  returns 0x00 (0000ms, 0681ms total)
T4120 001:724 JLINK_WriteReg(R14, 0x20000001)  returns 0x00 (0000ms, 0681ms total)
T4120 001:724 JLINK_WriteReg(R15 (PC), 0x20000054)  returns 0x00 (0000ms, 0681ms total)
T4120 001:724 JLINK_WriteReg(XPSR, 0x01000000)  returns 0x00 (0000ms, 0681ms total)
T4120 001:724 JLINK_WriteReg(MSP, 0x20001000)  returns 0x00 (0000ms, 0681ms total)
T4120 001:724 JLINK_WriteReg(PSP, 0x20001000)  returns 0x00 (0000ms, 0681ms total)
T4120 001:724 JLINK_WriteReg(CFBP, 0x00000000)  returns 0x00 (0000ms, 0681ms total)
T4120 001:724 JLINK_SetBPEx(Addr = 0x20000000, Type = 0xFFFFFFF2) -- CPU_ReadMem(2 bytes @ 0x20000000)  returns 0x00000005 (0001ms, 0682ms total)
T4120 001:725 JLINK_Go() -- CPU_WriteMem(2 bytes @ 0x20000000) (0002ms, 0684ms total)
T4120 001:727 JLINK_IsHalted() -- CPU_ReadMem(2 bytes @ 0x20000000)  returns TRUE (0004ms, 0688ms total)
T4120 001:731 JLINK_ReadReg(R15 (PC))  returns 0x20000000 (0000ms, 0684ms total)
T4120 001:731 JLINK_ClrBPEx(BPHandle = 0x00000005)  returns 0x00 (0000ms, 0684ms total)
T4120 001:731 JLINK_ReadReg(R0)  returns 0x00000000 (0000ms, 0684ms total)
T4120 001:731 JLINK_WriteMem(0x20000180, 0x0400 Bytes, ...) - Data: 38 43 00 20 59 02 00 08 D3 19 00 08 E1 16 00 08 ... -- CPU_WriteMem(1024 bytes @ 0x20000180)  returns 0x400 (0013ms, 0697ms total)
T4120 001:744 JLINK_WriteReg(R0, 0x08000000)  returns 0x00 (0000ms, 0697ms total)
T4120 001:744 JLINK_WriteReg(R1, 0x00000400)  returns 0x00 (0000ms, 0697ms total)
T4120 001:744 JLINK_WriteReg(R2, 0x20000180)  returns 0x00 (0000ms, 0697ms total)
T4120 001:744 JLINK_WriteReg(R3, 0x00000000)  returns 0x00 (0000ms, 0697ms total)
T4120 001:744 JLINK_WriteReg(R4, 0x00000000)  returns 0x00 (0000ms, 0697ms total)
T4120 001:744 JLINK_WriteReg(R5, 0x00000000)  returns 0x00 (0000ms, 0697ms total)
T4120 001:744 JLINK_WriteReg(R6, 0x00000000)  returns 0x00 (0000ms, 0697ms total)
T4120 001:744 JLINK_WriteReg(R7, 0x00000000)  returns 0x00 (0000ms, 0697ms total)
T4120 001:744 JLINK_WriteReg(R8, 0x00000000)  returns 0x00 (0000ms, 0697ms total)
T4120 001:744 JLINK_WriteReg(R9, 0x2000017C)  returns 0x00 (0000ms, 0697ms total)
T4120 001:744 JLINK_WriteReg(R10, 0x00000000)  returns 0x00 (0000ms, 0697ms total)
T4120 001:744 JLINK_WriteReg(R11, 0x00000000)  returns 0x00 (0000ms, 0697ms total)
T4120 001:744 JLINK_WriteReg(R12, 0x00000000)  returns 0x00 (0000ms, 0697ms total)
T4120 001:744 JLINK_WriteReg(R13 (SP), 0x20001000)  returns 0x00 (0000ms, 0697ms total)
T4120 001:744 JLINK_WriteReg(R14, 0x20000001)  returns 0x00 (0000ms, 0697ms total)
T4120 001:744 JLINK_WriteReg(R15 (PC), 0x20000108)  returns 0x00 (0000ms, 0697ms total)
T4120 001:745 JLINK_WriteReg(XPSR, 0x01000000)  returns 0x00 (0000ms, 0698ms total)
T4120 001:745 JLINK_WriteReg(MSP, 0x20001000)  returns 0x00 (0000ms, 0698ms total)
T4120 001:745 JLINK_WriteReg(PSP, 0x20001000)  returns 0x00 (0000ms, 0698ms total)
T4120 001:745 JLINK_WriteReg(CFBP, 0x00000000)  returns 0x00 (0000ms, 0698ms total)
T4120 001:745 JLINK_SetBPEx(Addr = 0x20000000, Type = 0xFFFFFFF2)  returns 0x00000006 (0000ms, 0698ms total)
T4120 001:745 JLINK_Go() (0002ms, 0700ms total)
T4120 001:747 JLINK_IsHalted()  returns FALSE (0000ms, 0700ms total)
T4120 001:862 JLINK_IsHalted() -- CPU_ReadMem(2 bytes @ 0x20000000)  returns TRUE (0004ms, 0704ms total)
T4120 001:866 JLINK_ReadReg(R15 (PC))  returns 0x20000000 (0000ms, 0700ms total)
T4120 001:866 JLINK_ClrBPEx(BPHandle = 0x00000006)  returns 0x00 (0000ms, 0700ms total)
T4120 001:866 JLINK_ReadReg(R0)  returns 0x00000000 (0000ms, 0700ms total)
T4120 001:870 JLINK_WriteMem(0x20000180, 0x0400 Bytes, ...) - Data: 01 DA 00 20 70 BD 40 F2 33 43 9A 42 A2 F2 33 42 ... -- CPU_WriteMem(1024 bytes @ 0x20000180)  returns 0x400 (0012ms, 0712ms total)
T4120 001:882 JLINK_WriteReg(R0, 0x08000400)  returns 0x00 (0000ms, 0712ms total)
T4120 001:882 JLINK_WriteReg(R1, 0x00000400)  returns 0x00 (0001ms, 0713ms total)
T4120 001:883 JLINK_WriteReg(R2, 0x20000180)  returns 0x00 (0000ms, 0713ms total)
T4120 001:883 JLINK_WriteReg(R3, 0x00000000)  returns 0x00 (0000ms, 0713ms total)
T4120 001:883 JLINK_WriteReg(R4, 0x00000000)  returns 0x00 (0000ms, 0713ms total)
T4120 001:883 JLINK_WriteReg(R5, 0x00000000)  returns 0x00 (0000ms, 0713ms total)
T4120 001:883 JLINK_WriteReg(R6, 0x00000000)  returns 0x00 (0000ms, 0713ms total)
T4120 001:883 JLINK_WriteReg(R7, 0x00000000)  returns 0x00 (0000ms, 0713ms total)
T4120 001:883 JLINK_WriteReg(R8, 0x00000000)  returns 0x00 (0000ms, 0713ms total)
T4120 001:883 JLINK_WriteReg(R9, 0x2000017C)  returns 0x00 (0000ms, 0713ms total)
T4120 001:883 JLINK_WriteReg(R10, 0x00000000)  returns 0x00 (0000ms, 0713ms total)
T4120 001:883 JLINK_WriteReg(R11, 0x00000000)  returns 0x00 (0000ms, 0713ms total)
T4120 001:883 JLINK_WriteReg(R12, 0x00000000)  returns 0x00 (0000ms, 0713ms total)
T4120 001:883 JLINK_WriteReg(R13 (SP), 0x20001000)  returns 0x00 (0000ms, 0713ms total)
T4120 001:883 JLINK_WriteReg(R14, 0x20000001)  returns 0x00 (0000ms, 0713ms total)
T4120 001:883 JLINK_WriteReg(R15 (PC), 0x20000108)  returns 0x00 (0000ms, 0713ms total)
T4120 001:883 JLINK_WriteReg(XPSR, 0x01000000)  returns 0x00 (0000ms, 0713ms total)
T4120 001:883 JLINK_WriteReg(MSP, 0x20001000)  returns 0x00 (0000ms, 0713ms total)
T4120 001:883 JLINK_WriteReg(PSP, 0x20001000)  returns 0x00 (0000ms, 0713ms total)
T4120 001:883 JLINK_WriteReg(CFBP, 0x00000000)  returns 0x00 (0000ms, 0713ms total)
T4120 001:883 JLINK_SetBPEx(Addr = 0x20000000, Type = 0xFFFFFFF2)  returns 0x00000007 (0000ms, 0713ms total)
T4120 001:883 JLINK_Go() (0002ms, 0715ms total)
T4120 001:885 JLINK_IsHalted()  returns FALSE (0001ms, 0716ms total)
T4120 001:982 JLINK_IsHalted() -- CPU_ReadMem(2 bytes @ 0x20000000)  returns TRUE (0004ms, 0719ms total)
T4120 001:986 JLINK_ReadReg(R15 (PC))  returns 0x20000000 (0000ms, 0715ms total)
T4120 001:986 JLINK_ClrBPEx(BPHandle = 0x00000007)  returns 0x00 (0000ms, 0715ms total)
T4120 001:986 JLINK_ReadReg(R0)  returns 0x00000000 (0000ms, 0715ms total)
T4120 001:986 JLINK_WriteMem(0x20000180, 0x0400 Bytes, ...) - Data: 22 F0 03 05 04 F4 80 44 00 94 32 4C 2E 19 D6 F8 ... -- CPU_WriteMem(1024 bytes @ 0x20000180)  returns 0x400 (0013ms, 0728ms total)
T4120 001:999 JLINK_WriteReg(R0, 0x08000800)  returns 0x00 (0000ms, 0728ms total)
T4120 001:999 JLINK_WriteReg(R1, 0x00000400)  returns 0x00 (0000ms, 0728ms total)
T4120 001:999 JLINK_WriteReg(R2, 0x20000180)  returns 0x00 (0000ms, 0728ms total)
T4120 001:999 JLINK_WriteReg(R3, 0x00000000)  returns 0x00 (0000ms, 0728ms total)
T4120 001:999 JLINK_WriteReg(R4, 0x00000000)  returns 0x00 (0000ms, 0728ms total)
T4120 001:999 JLINK_WriteReg(R5, 0x00000000)  returns 0x00 (0000ms, 0728ms total)
T4120 001:999 JLINK_WriteReg(R6, 0x00000000)  returns 0x00 (0000ms, 0728ms total)
T4120 001:999 JLINK_WriteReg(R7, 0x00000000)  returns 0x00 (0000ms, 0728ms total)
T4120 001:999 JLINK_WriteReg(R8, 0x00000000)  returns 0x00 (0000ms, 0728ms total)
T4120 001:999 JLINK_WriteReg(R9, 0x2000017C)  returns 0x00 (0000ms, 0728ms total)
T4120 001:999 JLINK_WriteReg(R10, 0x00000000)  returns 0x00 (0000ms, 0728ms total)
T4120 001:999 JLINK_WriteReg(R11, 0x00000000)  returns 0x00 (0000ms, 0728ms total)
T4120 001:999 JLINK_WriteReg(R12, 0x00000000)  returns 0x00 (0000ms, 0728ms total)
T4120 001:999 JLINK_WriteReg(R13 (SP), 0x20001000)  returns 0x00 (0000ms, 0728ms total)
T4120 001:999 JLINK_WriteReg(R14, 0x20000001)  returns 0x00 (0000ms, 0728ms total)
T4120 001:999 JLINK_WriteReg(R15 (PC), 0x20000108)  returns 0x00 (0000ms, 0728ms total)
T4120 001:999 JLINK_WriteReg(XPSR, 0x01000000)  returns 0x00 (0000ms, 0728ms total)
T4120 001:999 JLINK_WriteReg(MSP, 0x20001000)  returns 0x00 (0000ms, 0728ms total)
T4120 001:999 JLINK_WriteReg(PSP, 0x20001000)  returns 0x00 (0000ms, 0728ms total)
T4120 001:999 JLINK_WriteReg(CFBP, 0x00000000)  returns 0x00 (0000ms, 0728ms total)
T4120 001:999 JLINK_SetBPEx(Addr = 0x20000000, Type = 0xFFFFFFF2)  returns 0x00000008 (0000ms, 0728ms total)
T4120 001:999 JLINK_Go() (0002ms, 0730ms total)
T4120 002:001 JLINK_IsHalted()  returns FALSE (0001ms, 0731ms total)
T4120 002:006 JLINK_IsHalted() -- CPU_ReadMem(2 bytes @ 0x20000000)  returns TRUE (0004ms, 0734ms total)
T4120 002:010 JLINK_ReadReg(R15 (PC))  returns 0x20000000 (0000ms, 0730ms total)
T4120 002:010 JLINK_ClrBPEx(BPHandle = 0x00000008)  returns 0x00 (0000ms, 0730ms total)
T4120 002:010 JLINK_ReadReg(R0)  returns 0x00000000 (0000ms, 0730ms total)
T4120 002:011 JLINK_WriteMem(0x20000180, 0x0400 Bytes, ...) - Data: 0F 22 02 60 0C 4A 13 68 03 F0 03 03 43 60 13 68 ... -- CPU_WriteMem(1024 bytes @ 0x20000180)  returns 0x400 (0013ms, 0743ms total)
T4120 002:024 JLINK_WriteReg(R0, 0x08000C00)  returns 0x00 (0000ms, 0743ms total)
T4120 002:024 JLINK_WriteReg(R1, 0x00000400)  returns 0x00 (0000ms, 0743ms total)
T4120 002:024 JLINK_WriteReg(R2, 0x20000180)  returns 0x00 (0000ms, 0743ms total)
T4120 002:024 JLINK_WriteReg(R3, 0x00000000)  returns 0x00 (0000ms, 0743ms total)
T4120 002:024 JLINK_WriteReg(R4, 0x00000000)  returns 0x00 (0000ms, 0743ms total)
T4120 002:024 JLINK_WriteReg(R5, 0x00000000)  returns 0x00 (0000ms, 0743ms total)
T4120 002:024 JLINK_WriteReg(R6, 0x00000000)  returns 0x00 (0000ms, 0743ms total)
T4120 002:024 JLINK_WriteReg(R7, 0x00000000)  returns 0x00 (0000ms, 0743ms total)
T4120 002:024 JLINK_WriteReg(R8, 0x00000000)  returns 0x00 (0000ms, 0743ms total)
T4120 002:024 JLINK_WriteReg(R9, 0x2000017C)  returns 0x00 (0000ms, 0743ms total)
T4120 002:024 JLINK_WriteReg(R10, 0x00000000)  returns 0x00 (0000ms, 0743ms total)
T4120 002:024 JLINK_WriteReg(R11, 0x00000000)  returns 0x00 (0000ms, 0743ms total)
T4120 002:024 JLINK_WriteReg(R12, 0x00000000)  returns 0x00 (0000ms, 0743ms total)
T4120 002:024 JLINK_WriteReg(R13 (SP), 0x20001000)  returns 0x00 (0000ms, 0743ms total)
T4120 002:024 JLINK_WriteReg(R14, 0x20000001)  returns 0x00 (0000ms, 0743ms total)
T4120 002:024 JLINK_WriteReg(R15 (PC), 0x20000108)  returns 0x00 (0000ms, 0743ms total)
T4120 002:024 JLINK_WriteReg(XPSR, 0x01000000)  returns 0x00 (0000ms, 0743ms total)
T4120 002:024 JLINK_WriteReg(MSP, 0x20001000)  returns 0x00 (0000ms, 0743ms total)
T4120 002:024 JLINK_WriteReg(PSP, 0x20001000)  returns 0x00 (0000ms, 0743ms total)
T4120 002:024 JLINK_WriteReg(CFBP, 0x00000000)  returns 0x00 (0000ms, 0743ms total)
T4120 002:024 JLINK_SetBPEx(Addr = 0x20000000, Type = 0xFFFFFFF2)  returns 0x00000009 (0000ms, 0743ms total)
T4120 002:024 JLINK_Go() (0002ms, 0745ms total)
T4120 002:026 JLINK_IsHalted()  returns FALSE (0001ms, 0746ms total)
T4120 002:106 JLINK_IsHalted() -- CPU_ReadMem(2 bytes @ 0x20000000)  returns TRUE (0004ms, 0749ms total)
T4120 002:110 JLINK_ReadReg(R15 (PC))  returns 0x20000000 (0000ms, 0745ms total)
T4120 002:110 JLINK_ClrBPEx(BPHandle = 0x00000009)  returns 0x00 (0000ms, 0745ms total)
T4120 002:110 JLINK_ReadReg(R0)  returns 0x00000000 (0000ms, 0745ms total)
T4120 002:111 JLINK_WriteMem(0x20000180, 0x0400 Bytes, ...) - Data: 80 0E 47 42 00 70 00 40 00 00 FF FF 4F F0 E0 21 ... -- CPU_WriteMem(1024 bytes @ 0x20000180)  returns 0x400 (0012ms, 0757ms total)
T4120 002:123 JLINK_WriteReg(R0, 0x08001000)  returns 0x00 (0000ms, 0757ms total)
T4120 002:123 JLINK_WriteReg(R1, 0x00000400)  returns 0x00 (0000ms, 0757ms total)
T4120 002:123 JLINK_WriteReg(R2, 0x20000180)  returns 0x00 (0001ms, 0758ms total)
T4120 002:124 JLINK_WriteReg(R3, 0x00000000)  returns 0x00 (0000ms, 0758ms total)
T4120 002:124 JLINK_WriteReg(R4, 0x00000000)  returns 0x00 (0000ms, 0758ms total)
T4120 002:124 JLINK_WriteReg(R5, 0x00000000)  returns 0x00 (0000ms, 0758ms total)
T4120 002:124 JLINK_WriteReg(R6, 0x00000000)  returns 0x00 (0000ms, 0758ms total)
T4120 002:124 JLINK_WriteReg(R7, 0x00000000)  returns 0x00 (0000ms, 0758ms total)
T4120 002:124 JLINK_WriteReg(R8, 0x00000000)  returns 0x00 (0000ms, 0758ms total)
T4120 002:124 JLINK_WriteReg(R9, 0x2000017C)  returns 0x00 (0000ms, 0758ms total)
T4120 002:124 JLINK_WriteReg(R10, 0x00000000)  returns 0x00 (0000ms, 0758ms total)
T4120 002:124 JLINK_WriteReg(R11, 0x00000000)  returns 0x00 (0000ms, 0758ms total)
T4120 002:124 JLINK_WriteReg(R12, 0x00000000)  returns 0x00 (0000ms, 0758ms total)
T4120 002:124 JLINK_WriteReg(R13 (SP), 0x20001000)  returns 0x00 (0000ms, 0758ms total)
T4120 002:124 JLINK_WriteReg(R14, 0x20000001)  returns 0x00 (0000ms, 0758ms total)
T4120 002:124 JLINK_WriteReg(R15 (PC), 0x20000108)  returns 0x00 (0000ms, 0758ms total)
T4120 002:124 JLINK_WriteReg(XPSR, 0x01000000)  returns 0x00 (0000ms, 0758ms total)
T4120 002:124 JLINK_WriteReg(MSP, 0x20001000)  returns 0x00 (0000ms, 0758ms total)
T4120 002:124 JLINK_WriteReg(PSP, 0x20001000)  returns 0x00 (0000ms, 0758ms total)
T4120 002:124 JLINK_WriteReg(CFBP, 0x00000000)  returns 0x00 (0000ms, 0758ms total)
T4120 002:124 JLINK_SetBPEx(Addr = 0x20000000, Type = 0xFFFFFFF2)  returns 0x0000000A (0000ms, 0758ms total)
T4120 002:124 JLINK_Go() (0002ms, 0760ms total)
T4120 002:126 JLINK_IsHalted()  returns FALSE (0000ms, 0760ms total)
T4120 002:201 JLINK_IsHalted() -- CPU_ReadMem(2 bytes @ 0x20000000)  returns TRUE (0004ms, 0764ms total)
T4120 002:205 JLINK_ReadReg(R15 (PC))  returns 0x20000000 (0000ms, 0760ms total)
T4120 002:205 JLINK_ClrBPEx(BPHandle = 0x0000000A)  returns 0x00 (0000ms, 0760ms total)
T4120 002:205 JLINK_ReadReg(R0)  returns 0x00000000 (0000ms, 0760ms total)
T4120 002:206 JLINK_WriteMem(0x20000180, 0x0400 Bytes, ...) - Data: 0A 68 42 F4 80 12 0A 60 09 68 01 F4 80 11 05 91 ... -- CPU_WriteMem(1024 bytes @ 0x20000180)  returns 0x400 (0012ms, 0772ms total)
T4120 002:218 JLINK_WriteReg(R0, 0x08001400)  returns 0x00 (0000ms, 0772ms total)
T4120 002:218 JLINK_WriteReg(R1, 0x00000400)  returns 0x00 (0000ms, 0772ms total)
T4120 002:218 JLINK_WriteReg(R2, 0x20000180)  returns 0x00 (0000ms, 0772ms total)
T4120 002:218 JLINK_WriteReg(R3, 0x00000000)  returns 0x00 (0000ms, 0772ms total)
T4120 002:218 JLINK_WriteReg(R4, 0x00000000)  returns 0x00 (0000ms, 0772ms total)
T4120 002:218 JLINK_WriteReg(R5, 0x00000000)  returns 0x00 (0000ms, 0772ms total)
T4120 002:218 JLINK_WriteReg(R6, 0x00000000)  returns 0x00 (0000ms, 0772ms total)
T4120 002:218 JLINK_WriteReg(R7, 0x00000000)  returns 0x00 (0000ms, 0772ms total)
T4120 002:218 JLINK_WriteReg(R8, 0x00000000)  returns 0x00 (0000ms, 0772ms total)
T4120 002:218 JLINK_WriteReg(R9, 0x2000017C)  returns 0x00 (0000ms, 0772ms total)
T4120 002:218 JLINK_WriteReg(R10, 0x00000000)  returns 0x00 (0000ms, 0772ms total)
T4120 002:218 JLINK_WriteReg(R11, 0x00000000)  returns 0x00 (0000ms, 0772ms total)
T4120 002:218 JLINK_WriteReg(R12, 0x00000000)  returns 0x00 (0000ms, 0772ms total)
T4120 002:218 JLINK_WriteReg(R13 (SP), 0x20001000)  returns 0x00 (0000ms, 0772ms total)
T4120 002:218 JLINK_WriteReg(R14, 0x20000001)  returns 0x00 (0000ms, 0772ms total)
T4120 002:218 JLINK_WriteReg(R15 (PC), 0x20000108)  returns 0x00 (0000ms, 0772ms total)
T4120 002:218 JLINK_WriteReg(XPSR, 0x01000000)  returns 0x00 (0000ms, 0772ms total)
T4120 002:218 JLINK_WriteReg(MSP, 0x20001000)  returns 0x00 (0000ms, 0772ms total)
T4120 002:218 JLINK_WriteReg(PSP, 0x20001000)  returns 0x00 (0000ms, 0772ms total)
T4120 002:218 JLINK_WriteReg(CFBP, 0x00000000)  returns 0x00 (0000ms, 0772ms total)
T4120 002:218 JLINK_SetBPEx(Addr = 0x20000000, Type = 0xFFFFFFF2)  returns 0x0000000B (0001ms, 0773ms total)
T4120 002:219 JLINK_Go() (0001ms, 0774ms total)
T4120 002:220 JLINK_IsHalted()  returns FALSE (0001ms, 0775ms total)
T4120 002:223 JLINK_IsHalted()  returns FALSE (0000ms, 0774ms total)
T4120 002:287 JLINK_IsHalted() -- CPU_ReadMem(2 bytes @ 0x20000000)  returns TRUE (0003ms, 0777ms total)
T4120 002:290 JLINK_ReadReg(R15 (PC))  returns 0x20000000 (0000ms, 0774ms total)
T4120 002:290 JLINK_ClrBPEx(BPHandle = 0x0000000B)  returns 0x00 (0000ms, 0774ms total)
T4120 002:290 JLINK_ReadReg(R0)  returns 0x00000000 (0000ms, 0774ms total)
T4120 002:291 JLINK_WriteMem(0x20000180, 0x0400 Bytes, ...) - Data: 4F F4 FA 74 20 46 00 F0 22 FE FB E7 10 B5 9E B0 ... -- CPU_WriteMem(1024 bytes @ 0x20000180)  returns 0x400 (0013ms, 0787ms total)
T4120 002:304 JLINK_WriteReg(R0, 0x08001800)  returns 0x00 (0000ms, 0787ms total)
T4120 002:304 JLINK_WriteReg(R1, 0x00000400)  returns 0x00 (0000ms, 0787ms total)
T4120 002:304 JLINK_WriteReg(R2, 0x20000180)  returns 0x00 (0000ms, 0787ms total)
T4120 002:304 JLINK_WriteReg(R3, 0x00000000)  returns 0x00 (0000ms, 0787ms total)
T4120 002:304 JLINK_WriteReg(R4, 0x00000000)  returns 0x00 (0000ms, 0787ms total)
T4120 002:304 JLINK_WriteReg(R5, 0x00000000)  returns 0x00 (0000ms, 0787ms total)
T4120 002:304 JLINK_WriteReg(R6, 0x00000000)  returns 0x00 (0000ms, 0787ms total)
T4120 002:304 JLINK_WriteReg(R7, 0x00000000)  returns 0x00 (0000ms, 0787ms total)
T4120 002:304 JLINK_WriteReg(R8, 0x00000000)  returns 0x00 (0000ms, 0787ms total)
T4120 002:304 JLINK_WriteReg(R9, 0x2000017C)  returns 0x00 (0000ms, 0787ms total)
T4120 002:304 JLINK_WriteReg(R10, 0x00000000)  returns 0x00 (0000ms, 0787ms total)
T4120 002:304 JLINK_WriteReg(R11, 0x00000000)  returns 0x00 (0000ms, 0787ms total)
T4120 002:304 JLINK_WriteReg(R12, 0x00000000)  returns 0x00 (0000ms, 0787ms total)
T4120 002:304 JLINK_WriteReg(R13 (SP), 0x20001000)  returns 0x00 (0000ms, 0787ms total)
T4120 002:304 JLINK_WriteReg(R14, 0x20000001)  returns 0x00 (0000ms, 0787ms total)
T4120 002:304 JLINK_WriteReg(R15 (PC), 0x20000108)  returns 0x00 (0000ms, 0787ms total)
T4120 002:304 JLINK_WriteReg(XPSR, 0x01000000)  returns 0x00 (0000ms, 0787ms total)
T4120 002:304 JLINK_WriteReg(MSP, 0x20001000)  returns 0x00 (0000ms, 0787ms total)
T4120 002:304 JLINK_WriteReg(PSP, 0x20001000)  returns 0x00 (0000ms, 0787ms total)
T4120 002:304 JLINK_WriteReg(CFBP, 0x00000000)  returns 0x00 (0000ms, 0787ms total)
T4120 002:304 JLINK_SetBPEx(Addr = 0x20000000, Type = 0xFFFFFFF2)  returns 0x0000000C (0000ms, 0787ms total)
T4120 002:304 JLINK_Go() (0002ms, 0789ms total)
T4120 002:306 JLINK_IsHalted()  returns FALSE (0000ms, 0789ms total)
T4120 002:315 JLINK_IsHalted() -- CPU_ReadMem(2 bytes @ 0x20000000)  returns TRUE (0004ms, 0793ms total)
T4120 002:319 JLINK_ReadReg(R15 (PC))  returns 0x20000000 (0000ms, 0789ms total)
T4120 002:319 JLINK_ClrBPEx(BPHandle = 0x0000000C)  returns 0x00 (0000ms, 0789ms total)
T4120 002:319 JLINK_ReadReg(R0)  returns 0x00000000 (0000ms, 0789ms total)
T4120 002:323 JLINK_WriteMem(0x20000180, 0x0400 Bytes, ...) - Data: 0B 90 68 46 FF F7 74 F8 00 B1 FE E7 0C A9 0F 20 ... -- CPU_WriteMem(1024 bytes @ 0x20000180)  returns 0x400 (0013ms, 0802ms total)
T4120 002:336 JLINK_WriteReg(R0, 0x08001C00)  returns 0x00 (0000ms, 0802ms total)
T4120 002:336 JLINK_WriteReg(R1, 0x00000400)  returns 0x00 (0000ms, 0802ms total)
T4120 002:336 JLINK_WriteReg(R2, 0x20000180)  returns 0x00 (0000ms, 0802ms total)
T4120 002:336 JLINK_WriteReg(R3, 0x00000000)  returns 0x00 (0000ms, 0802ms total)
T4120 002:336 JLINK_WriteReg(R4, 0x00000000)  returns 0x00 (0000ms, 0802ms total)
T4120 002:336 JLINK_WriteReg(R5, 0x00000000)  returns 0x00 (0000ms, 0802ms total)
T4120 002:336 JLINK_WriteReg(R6, 0x00000000)  returns 0x00 (0000ms, 0802ms total)
T4120 002:336 JLINK_WriteReg(R7, 0x00000000)  returns 0x00 (0000ms, 0802ms total)
T4120 002:336 JLINK_WriteReg(R8, 0x00000000)  returns 0x00 (0000ms, 0802ms total)
T4120 002:336 JLINK_WriteReg(R9, 0x2000017C)  returns 0x00 (0000ms, 0802ms total)
T4120 002:336 JLINK_WriteReg(R10, 0x00000000)  returns 0x00 (0000ms, 0802ms total)
T4120 002:336 JLINK_WriteReg(R11, 0x00000000)  returns 0x00 (0000ms, 0802ms total)
T4120 002:336 JLINK_WriteReg(R12, 0x00000000)  returns 0x00 (0000ms, 0802ms total)
T4120 002:336 JLINK_WriteReg(R13 (SP), 0x20001000)  returns 0x00 (0000ms, 0802ms total)
T4120 002:336 JLINK_WriteReg(R14, 0x20000001)  returns 0x00 (0000ms, 0802ms total)
T4120 002:336 JLINK_WriteReg(R15 (PC), 0x20000108)  returns 0x00 (0000ms, 0802ms total)
T4120 002:336 JLINK_WriteReg(XPSR, 0x01000000)  returns 0x00 (0000ms, 0802ms total)
T4120 002:336 JLINK_WriteReg(MSP, 0x20001000)  returns 0x00 (0000ms, 0802ms total)
T4120 002:336 JLINK_WriteReg(PSP, 0x20001000)  returns 0x00 (0001ms, 0803ms total)
T4120 002:337 JLINK_WriteReg(CFBP, 0x00000000)  returns 0x00 (0000ms, 0803ms total)
T4120 002:337 JLINK_SetBPEx(Addr = 0x20000000, Type = 0xFFFFFFF2)  returns 0x0000000D (0000ms, 0803ms total)
T4120 002:337 JLINK_Go() (0002ms, 0805ms total)
T4120 002:339 JLINK_IsHalted()  returns FALSE (0000ms, 0805ms total)
T4120 002:429 JLINK_IsHalted() -- CPU_ReadMem(2 bytes @ 0x20000000)  returns TRUE (0003ms, 0808ms total)
T4120 002:432 JLINK_ReadReg(R15 (PC))  returns 0x20000000 (0000ms, 0805ms total)
T4120 002:432 JLINK_ClrBPEx(BPHandle = 0x0000000D)  returns 0x00 (0001ms, 0806ms total)
T4120 002:433 JLINK_ReadReg(R0)  returns 0x00000000 (0000ms, 0806ms total)
T4120 002:433 JLINK_WriteMem(0x20000180, 0x0400 Bytes, ...) - Data: F5 F0 00 F0 F8 00 06 EB 40 06 FE F7 1F FE 00 EB ... -- CPU_WriteMem(1024 bytes @ 0x20000180)  returns 0x400 (0013ms, 0819ms total)
T4120 002:446 JLINK_WriteReg(R0, 0x08002000)  returns 0x00 (0000ms, 0819ms total)
T4120 002:446 JLINK_WriteReg(R1, 0x00000400)  returns 0x00 (0000ms, 0819ms total)
T4120 002:446 JLINK_WriteReg(R2, 0x20000180)  returns 0x00 (0000ms, 0819ms total)
T4120 002:446 JLINK_WriteReg(R3, 0x00000000)  returns 0x00 (0000ms, 0819ms total)
T4120 002:446 JLINK_WriteReg(R4, 0x00000000)  returns 0x00 (0000ms, 0819ms total)
T4120 002:446 JLINK_WriteReg(R5, 0x00000000)  returns 0x00 (0000ms, 0819ms total)
T4120 002:446 JLINK_WriteReg(R6, 0x00000000)  returns 0x00 (0000ms, 0819ms total)
T4120 002:446 JLINK_WriteReg(R7, 0x00000000)  returns 0x00 (0000ms, 0819ms total)
T4120 002:446 JLINK_WriteReg(R8, 0x00000000)  returns 0x00 (0000ms, 0819ms total)
T4120 002:446 JLINK_WriteReg(R9, 0x2000017C)  returns 0x00 (0000ms, 0819ms total)
T4120 002:446 JLINK_WriteReg(R10, 0x00000000)  returns 0x00 (0000ms, 0819ms total)
T4120 002:446 JLINK_WriteReg(R11, 0x00000000)  returns 0x00 (0000ms, 0819ms total)
T4120 002:446 JLINK_WriteReg(R12, 0x00000000)  returns 0x00 (0000ms, 0819ms total)
T4120 002:446 JLINK_WriteReg(R13 (SP), 0x20001000)  returns 0x00 (0000ms, 0819ms total)
T4120 002:446 JLINK_WriteReg(R14, 0x20000001)  returns 0x00 (0000ms, 0819ms total)
T4120 002:446 JLINK_WriteReg(R15 (PC), 0x20000108)  returns 0x00 (0000ms, 0819ms total)
T4120 002:446 JLINK_WriteReg(XPSR, 0x01000000)  returns 0x00 (0000ms, 0819ms total)
T4120 002:446 JLINK_WriteReg(MSP, 0x20001000)  returns 0x00 (0000ms, 0819ms total)
T4120 002:446 JLINK_WriteReg(PSP, 0x20001000)  returns 0x00 (0000ms, 0819ms total)
T4120 002:446 JLINK_WriteReg(CFBP, 0x00000000)  returns 0x00 (0000ms, 0819ms total)
T4120 002:446 JLINK_SetBPEx(Addr = 0x20000000, Type = 0xFFFFFFF2)  returns 0x0000000E (0000ms, 0819ms total)
T4120 002:446 JLINK_Go() (0002ms, 0821ms total)
T4120 002:448 JLINK_IsHalted()  returns FALSE (0001ms, 0822ms total)
T4120 002:528 JLINK_IsHalted() -- CPU_ReadMem(2 bytes @ 0x20000000)  returns TRUE (0004ms, 0825ms total)
T4120 002:532 JLINK_ReadReg(R15 (PC))  returns 0x20000000 (0000ms, 0821ms total)
T4120 002:532 JLINK_ClrBPEx(BPHandle = 0x0000000E)  returns 0x00 (0000ms, 0821ms total)
T4120 002:532 JLINK_ReadReg(R0)  returns 0x00000000 (0000ms, 0821ms total)
T4120 002:533 JLINK_WriteMem(0x20000180, 0x0400 Bytes, ...) - Data: 13 B5 4F F6 FF 73 01 22 69 46 02 48 FF F7 0A F9 ... -- CPU_WriteMem(1024 bytes @ 0x20000180)  returns 0x400 (0012ms, 0833ms total)
T4120 002:545 JLINK_WriteReg(R0, 0x08002400)  returns 0x00 (0000ms, 0833ms total)
T4120 002:545 JLINK_WriteReg(R1, 0x00000400)  returns 0x00 (0000ms, 0833ms total)
T4120 002:545 JLINK_WriteReg(R2, 0x20000180)  returns 0x00 (0000ms, 0833ms total)
T4120 002:545 JLINK_WriteReg(R3, 0x00000000)  returns 0x00 (0000ms, 0833ms total)
T4120 002:545 JLINK_WriteReg(R4, 0x00000000)  returns 0x00 (0000ms, 0833ms total)
T4120 002:545 JLINK_WriteReg(R5, 0x00000000)  returns 0x00 (0000ms, 0833ms total)
T4120 002:545 JLINK_WriteReg(R6, 0x00000000)  returns 0x00 (0000ms, 0833ms total)
T4120 002:545 JLINK_WriteReg(R7, 0x00000000)  returns 0x00 (0000ms, 0833ms total)
T4120 002:545 JLINK_WriteReg(R8, 0x00000000)  returns 0x00 (0000ms, 0833ms total)
T4120 002:545 JLINK_WriteReg(R9, 0x2000017C)  returns 0x00 (0000ms, 0833ms total)
T4120 002:545 JLINK_WriteReg(R10, 0x00000000)  returns 0x00 (0000ms, 0833ms total)
T4120 002:545 JLINK_WriteReg(R11, 0x00000000)  returns 0x00 (0001ms, 0834ms total)
T4120 002:546 JLINK_WriteReg(R12, 0x00000000)  returns 0x00 (0000ms, 0834ms total)
T4120 002:546 JLINK_WriteReg(R13 (SP), 0x20001000)  returns 0x00 (0000ms, 0834ms total)
T4120 002:546 JLINK_WriteReg(R14, 0x20000001)  returns 0x00 (0000ms, 0834ms total)
T4120 002:546 JLINK_WriteReg(R15 (PC), 0x20000108)  returns 0x00 (0000ms, 0834ms total)
T4120 002:546 JLINK_WriteReg(XPSR, 0x01000000)  returns 0x00 (0000ms, 0834ms total)
T4120 002:546 JLINK_WriteReg(MSP, 0x20001000)  returns 0x00 (0000ms, 0834ms total)
T4120 002:546 JLINK_WriteReg(PSP, 0x20001000)  returns 0x00 (0000ms, 0834ms total)
T4120 002:546 JLINK_WriteReg(CFBP, 0x00000000)  returns 0x00 (0000ms, 0834ms total)
T4120 002:546 JLINK_SetBPEx(Addr = 0x20000000, Type = 0xFFFFFFF2)  returns 0x0000000F (0000ms, 0834ms total)
T4120 002:546 JLINK_Go() (0002ms, 0836ms total)
T4120 002:548 JLINK_IsHalted()  returns FALSE (0000ms, 0836ms total)
T4120 002:552 JLINK_IsHalted() -- CPU_ReadMem(2 bytes @ 0x20000000)  returns TRUE (0004ms, 0840ms total)
T4120 002:556 JLINK_ReadReg(R15 (PC))  returns 0x20000000 (0000ms, 0836ms total)
T4120 002:556 JLINK_ClrBPEx(BPHandle = 0x0000000F)  returns 0x00 (0000ms, 0836ms total)
T4120 002:556 JLINK_ReadReg(R0)  returns 0x00000000 (0000ms, 0836ms total)
T4120 002:558 JLINK_WriteMem(0x20000180, 0x0400 Bytes, ...) - Data: C5 B3 08 35 68 07 0E D0 05 F0 07 00 C0 F1 08 00 ... -- CPU_WriteMem(1024 bytes @ 0x20000180)  returns 0x400 (0012ms, 0848ms total)
T4120 002:570 JLINK_WriteReg(R0, 0x08002800)  returns 0x00 (0000ms, 0848ms total)
T4120 002:570 JLINK_WriteReg(R1, 0x00000400)  returns 0x00 (0000ms, 0848ms total)
T4120 002:570 JLINK_WriteReg(R2, 0x20000180)  returns 0x00 (0000ms, 0848ms total)
T4120 002:570 JLINK_WriteReg(R3, 0x00000000)  returns 0x00 (0000ms, 0848ms total)
T4120 002:570 JLINK_WriteReg(R4, 0x00000000)  returns 0x00 (0000ms, 0848ms total)
T4120 002:570 JLINK_WriteReg(R5, 0x00000000)  returns 0x00 (0000ms, 0848ms total)
T4120 002:570 JLINK_WriteReg(R6, 0x00000000)  returns 0x00 (0000ms, 0848ms total)
T4120 002:570 JLINK_WriteReg(R7, 0x00000000)  returns 0x00 (0000ms, 0848ms total)
T4120 002:570 JLINK_WriteReg(R8, 0x00000000)  returns 0x00 (0000ms, 0848ms total)
T4120 002:570 JLINK_WriteReg(R9, 0x2000017C)  returns 0x00 (0000ms, 0848ms total)
T4120 002:570 JLINK_WriteReg(R10, 0x00000000)  returns 0x00 (0000ms, 0848ms total)
T4120 002:570 JLINK_WriteReg(R11, 0x00000000)  returns 0x00 (0000ms, 0848ms total)
T4120 002:570 JLINK_WriteReg(R12, 0x00000000)  returns 0x00 (0000ms, 0848ms total)
T4120 002:570 JLINK_WriteReg(R13 (SP), 0x20001000)  returns 0x00 (0000ms, 0848ms total)
T4120 002:570 JLINK_WriteReg(R14, 0x20000001)  returns 0x00 (0000ms, 0848ms total)
T4120 002:570 JLINK_WriteReg(R15 (PC), 0x20000108)  returns 0x00 (0000ms, 0848ms total)
T4120 002:570 JLINK_WriteReg(XPSR, 0x01000000)  returns 0x00 (0000ms, 0848ms total)
T4120 002:570 JLINK_WriteReg(MSP, 0x20001000)  returns 0x00 (0000ms, 0848ms total)
T4120 002:570 JLINK_WriteReg(PSP, 0x20001000)  returns 0x00 (0000ms, 0848ms total)
T4120 002:570 JLINK_WriteReg(CFBP, 0x00000000)  returns 0x00 (0000ms, 0848ms total)
T4120 002:570 JLINK_SetBPEx(Addr = 0x20000000, Type = 0xFFFFFFF2)  returns 0x00000010 (0000ms, 0848ms total)
T4120 002:570 JLINK_Go() (0002ms, 0850ms total)
T4120 002:573 JLINK_IsHalted()  returns FALSE (0000ms, 0851ms total)
T4120 002:656 JLINK_IsHalted() -- CPU_ReadMem(2 bytes @ 0x20000000)  returns TRUE (0004ms, 0855ms total)
T4120 002:660 JLINK_ReadReg(R15 (PC))  returns 0x20000000 (0000ms, 0851ms total)
T4120 002:660 JLINK_ClrBPEx(BPHandle = 0x00000010)  returns 0x00 (0000ms, 0851ms total)
T4120 002:660 JLINK_ReadReg(R0)  returns 0x00000000 (0000ms, 0851ms total)
T4120 002:661 JLINK_WriteMem(0x20000180, 0x0400 Bytes, ...) - Data: 80 F3 11 88 BF F3 4F 8F BF F3 6F 8F FE E7 00 00 ... -- CPU_WriteMem(1024 bytes @ 0x20000180)  returns 0x400 (0012ms, 0863ms total)
T4120 002:673 JLINK_WriteReg(R0, 0x08002C00)  returns 0x00 (0000ms, 0863ms total)
T4120 002:673 JLINK_WriteReg(R1, 0x00000400)  returns 0x00 (0000ms, 0863ms total)
T4120 002:673 JLINK_WriteReg(R2, 0x20000180)  returns 0x00 (0000ms, 0863ms total)
